
T0B88 000:094 SEGGER J-Link V4.62 Log File (0001ms, 0095ms total)
T0B88 000:094 DLL Compiled: Jan 25 2013 15:19:47 (0001ms, 0095ms total)
T0B88 000:094 Logging started @ 2013-03-20 13:41 (0001ms, 0095ms total)
T0B88 000:095 JLINK_SetWarnOutHandler(...) (0000ms, 0095ms total)
T0B88 000:095 JLINK_OpenEx(...)
Firmware: J-Link ARM V8 compiled Nov 14 2012 22:34:52
Hardware: V8.00
Feature(s): RDI,FlashDL,FlashBP,JFlash,GDBFull  returns O.K. (0030ms, 0125ms total)
T0B88 000:125 JLINK_SetErrorOutHandler(...) (0000ms, 0125ms total)
T0B88 000:125 JLINK_ExecCommand("ProjectFile = "D:\HB_F4_Drv2\RT_threadNewBoard\Xj\交通部老平台测试版本\JT808-974 RT-Thread_NewBoard-LCD2-JianceCombin 3-18\bsp\stm32f407vgt6_RecDrv\JLinkSettings.ini"", ...)  returns 0x00 (0000ms, 0125ms total)
T0B88 000:177 JLINK_ExecCommand("Device = STM32F407VG", ...)
                JLINK_ExecCommand("map ram 0x20000000 - 0x2001FFFF", ...)  returns 0x00 (0000ms, 0000ms total)
                JLINK_AddMirrorAreaEx(Addr = 0x00000000, Size = 0x00000000) (0000ms, 0000ms total)
              Device "STM32F407VG" selected (1024 KB flash, 128 KB RAM).  returns 0x00 (0049ms, 0174ms total)
T0B88 000:226 JLINK_ExecCommand("DisableConnectionTimeout", ...)  returns 0x00 (0000ms, 0174ms total)
T0B88 000:226 JLINK_TIF_Select(JLINKARM_TIF_SWD)  returns 0x00 (0008ms, 0182ms total)
T0B88 000:234 JLINK_SetSpeed(10000) (0002ms, 0184ms total)
T0B88 000:236 JLINK_GetHardwareVersion()  returns 0x13880 (0000ms, 0184ms total)
T0B88 000:236 JLINK_GetDLLVersion()  returns 46200 (0000ms, 0184ms total)
T0B88 000:236 JLINK_GetFirmwareString(...) (0000ms, 0184ms total)
T0B88 000:307 JLINK_GetDLLVersion()  returns 46200 (0000ms, 0184ms total)
T0B88 000:307 JLINK_GetCompileDateTime() (0000ms, 0184ms total)
T0B88 000:321 JLINK_GetFirmwareString(...) (0000ms, 0184ms total)
T0B88 000:334 JLINK_GetHardwareVersion()  returns 0x13880 (0000ms, 0184ms total)
T0B88 000:372 JLINK_GetId() >0x108 TIF>Found SWD-DP with ID 0x2BA01477 >0x0D TIF> >0x28 TIF> >0x0D TIF> >0x28 TIF> >0x0D TIF> >0x21 TIF> >0x0D TIF> >0x28 TIF> >0x0D TIF> >0x28 TIF> >0x0D TIF> >0x28 TIF> >0x0D TIF> >0x21 TIF> >0x0D TIF> >0x21 TIF> >0x0D TIF> >0x28 TIF> >0x0D TIF> >0x21 TIF> >0x0D TIF> >0x21 TIF> >0x0D TIF> >0x28 TIF> >0x0D TIF> >0x21 TIF> >0x0D TIF> >0x21 TIF> >0x108 TIF>Found SWD-DP with ID 0x2BA01477 >0x0D TIF> >0x21 TIF> >0x0D TIF> >0x28 TIF> >0x0D TIF> >0x28 TIF> >0x0D TIF> >0x21 TIF>
 >0x0D TIF> >0x21 TIF> >0x0D TIF> >0x28 TIF> >0x0D TIF> >0x21 TIF> >0x0D TIF> >0x21 TIF> >0x0D TIF> >0x21 TIF> >0x0D TIF> >0x21 TIF> >0x0D TIF> >0x21 TIF> >0x0D TIF> >0x28 TIF> >0x0D TIF> >0x28 TIF> >0x0D TIF> >0x21 TIF> >0x0D TIF> >0x21 TIF> >0x0D TIF> >0x28 TIF> >0x0D TIF> >0x21 TIF> >0x0D TIF> >0x21 TIF> >0x0D TIF> >0x28 TIF> >0x0D TIF> >0x28 TIF> >0x0D TIF> >0x28 TIF> >0x0D TIF> >0x21 TIF> >0x0D TIF> >0x21 TIF> >0x0D TIF> >0x28 TIF> >0x0D TIF> >0x28 TIF> >0x0D TIF> >0x28 TIF> >0x0D TIF> >0x21 TIF>
 >0x0D TIF> >0x21 TIF> >0x0D TIF> >0x21 TIF>TPIU fitted.ETM fitted. >0x0D TIF> >0x28 TIF> >0x0D TIF> >0x21 TIF> >0x0D TIF> >0x21 TIF> >0x0D TIF> >0x28 TIF> >0x0D TIF> >0x21 TIF> >0x0D TIF> >0x21 TIF>FPUnit: 6 code (BP) slots and 2 literal slots >0x0D TIF> >0x28 TIF> >0x0D TIF> >0x21 TIF> >0x0D TIF> >0x21 TIF> >0x0D TIF> >0x28 TIF> >0x0D TIF> >0x21 TIF> >0x0D TIF> >0x21 TIF> >0x0D TIF> >0x28 TIF> >0x0D TIF> >0x21 TIF> >0x0D TIF> >0x21 TIF> >0x0D TIF> >0x28 TIF> >0x0D TIF> >0x21 TIF> >0x0D TIF> >0x21 TIF>
Found Cortex-M4 r0p1, Little endian. >0x0D TIF> >0x21 TIF>  returns 0x2BA01477 (0198ms, 0382ms total)
T0B88 000:570 JLINK_GetDeviceFamily()  returns 14 (0000ms, 0382ms total)
T0B88 000:578 JLINK_ReadMem (0xE00FFFF0, 0x0010 Bytes, ...) -- CPU is running -- CPU_ReadMem(16 bytes @ 0xE00FFFF0) -- Data:  0D 00 00 00 10 00 00 00 05 00 00 00 B1 00 00 00  returns 0x00 (0003ms, 0385ms total)
T0B88 000:581 JLINK_ReadMem (0xE00FFFD0, 0x0020 Bytes, ...) -- CPU is running -- CPU_ReadMem(32 bytes @ 0xE00FFFD0) -- Data:  00 00 00 00 00 00 00 00 00 00 00 00 00 00 00 00 ...  returns 0x00 (0001ms, 0386ms total)
T0B88 000:582 JLINK_ReadMem (0xE00FF000, 0x0018 Bytes, ...) -- CPU is running -- CPU_ReadMem(24 bytes @ 0xE00FF000) -- Data:  03 F0 F0 FF 03 20 F0 FF 03 30 F0 FF 03 10 F0 FF ...  returns 0x00 (0001ms, 0387ms total)
T0B88 000:583 JLINK_ReadMemU32(0xE000ED00, 0x0001 Items, ...) -- CPU is running -- CPU_ReadMem(4 bytes @ 0xE000ED00) -- Data:  41 C2 0F 41  returns 0x01 (0000ms, 0387ms total)
T0B88 000:583 JLINK_ReadMemU32(0xE000EF40, 0x0001 Items, ...) -- CPU is running -- CPU_ReadMem(4 bytes @ 0xE000EF40) -- Data:  21 00 11 10  returns 0x01 (0001ms, 0388ms total)
T0B88 000:584 JLINK_ReadMemU32(0xE000EF44, 0x0001 Items, ...) -- CPU is running -- CPU_ReadMem(4 bytes @ 0xE000EF44) -- Data:  11 00 00 11  returns 0x01 (0001ms, 0389ms total)
T0B88 000:585 JLINK_SetResetType(JLINKARM_RESET_TYPE_NORMAL)  returns JLINKARM_RESET_TYPE_NORMAL (0000ms, 0389ms total)
T0B88 000:585 JLINK_Reset() -- CPU is running -- CPU_WriteMem(4 bytes @ 0xE000EDF0) -- CPU is running -- CPU_WriteMem(4 bytes @ 0xE000EDFC) >0x35 TIF> -- CPU is running -- CPU_WriteMem(4 bytes @ 0xE000ED0C) -- CPU is running -- CPU_ReadMem(4 bytes @ 0xE000EDF0) -- CPU is running -- CPU_ReadMem(4 bytes @ 0xE000EDF0) -- CPU is running -- CPU_WriteMem(4 bytes @ 0xE000EDF0) -- CPU is running -- CPU_WriteMem(4 bytes @ 0xE000EDFC) -- CPU is running -- CPU_ReadMem(4 bytes @ 0xE000EDF0)
 -- CPU_WriteMem(4 bytes @ 0xE0002000) (0023ms, 0412ms total)
T0B88 000:608 JLINK_Halt()  returns 0x00 (0000ms, 0412ms total)
T0B88 000:608 JLINK_IsHalted()  returns TRUE (0000ms, 0412ms total)
T0B88 000:608 JLINK_ReadMemU32(0xE000EDF0, 0x0001 Items, ...) -- CPU_ReadMem(4 bytes @ 0xE000EDF0) -- Data:  03 00 03 00  returns 0x01 (0001ms, 0413ms total)
T0B88 000:609 JLINK_WriteU32(0xE000EDF0, 0xA05F0003) -- CPU_WriteMem(4 bytes @ 0xE000EDF0)  returns 0x00 (0001ms, 0414ms total)
T0B88 000:610 JLINK_WriteU32(0xE000EDFC, 0x01000000) -- CPU_WriteMem(4 bytes @ 0xE000EDFC)  returns 0x00 (0001ms, 0415ms total)
T0B88 000:643 JLINK_GetHWStatus(...)  returns 0x00 (0001ms, 0416ms total)
T0B88 000:667 JLINK_GetNumBPUnits(Type = 0xFFFFFF00)  returns 0x06 (0000ms, 0416ms total)
T0B88 000:667 JLINK_GetNumBPUnits(Type = 0xF0)  returns 0x2000 (0000ms, 0416ms total)
T0B88 000:667 JLINK_GetNumWPUnits()  returns 0x04 (0000ms, 0416ms total)
T0B88 000:690 JLINK_GetSpeed()  returns 0xFA0 (0000ms, 0416ms total)
T0B88 000:705 JLINK_ReadMemU32(0xE000E004, 0x0001 Items, ...) -- CPU_ReadMem(4 bytes @ 0xE000E004) -- Data:  02 00 00 00  returns 0x01 (0001ms, 0417ms total)
T0B88 000:706 JLINK_ReadMemU32(0xE000E004, 0x0001 Items, ...) -- CPU_ReadMem(4 bytes @ 0xE000E004) -- Data:  02 00 00 00  returns 0x01 (0001ms, 0418ms total)
T0B88 000:707 JLINK_WriteMem(0xE0001000, 0x001C Bytes, ...) -- Data:  01 00 00 00 00 00 00 00 00 00 00 00 00 00 00 00 ... -- CPU_WriteMem(28 bytes @ 0xE0001000)  returns 0x1C (0001ms, 0419ms total)
T0B88 000:708 JLINK_ReadMem (0xE0001000, 0x001C Bytes, ...) -- CPU_ReadMem(28 bytes @ 0xE0001000) -- Data:  01 00 00 40 00 00 00 00 00 00 00 00 00 00 00 00 ...  returns 0x00 (0000ms, 0419ms total)
T0B88 000:708 JLINK_Halt()  returns 0x00 (0000ms, 0419ms total)
T0B88 000:708 JLINK_IsHalted()  returns TRUE (0000ms, 0419ms total)
T0B88 000:712 JLINK_WriteMem(0x20000000, 0x0180 Bytes, ...) -- Data:  00 BE 0A E0 0D 78 2D 06 68 40 08 24 40 00 00 D3 ... -- CPU_WriteMem(384 bytes @ 0x20000000)  returns 0x180 (0004ms, 0423ms total)
T0B88 000:716 JLINK_WriteReg(R0, 0x08000000)  returns 0x00 (0000ms, 0423ms total)
T0B88 000:716 JLINK_WriteReg(R1, 0x007A1200)  returns 0x00 (0000ms, 0423ms total)
T0B88 000:716 JLINK_WriteReg(R2, 0x00000001)  returns 0x00 (0000ms, 0423ms total)
T0B88 000:716 JLINK_WriteReg(R3, 0x00000000)  returns 0x00 (0001ms, 0424ms total)
T0B88 000:717 JLINK_WriteReg(R4, 0x00000000)  returns 0x00 (0000ms, 0424ms total)
T0B88 000:717 JLINK_WriteReg(R5, 0x00000000)  returns 0x00 (0000ms, 0424ms total)
T0B88 000:717 JLINK_WriteReg(R6, 0x00000000)  returns 0x00 (0000ms, 0424ms total)
T0B88 000:717 JLINK_WriteReg(R7, 0x00000000)  returns 0x00 (0000ms, 0424ms total)
T0B88 000:717 JLINK_WriteReg(R8, 0x00000000)  returns 0x00 (0001ms, 0425ms total)
T0B88 000:718 JLINK_WriteReg(R9, 0x2000017C)  returns 0x00 (0000ms, 0425ms total)
T0B88 000:718 JLINK_WriteReg(R10, 0x00000000)  returns 0x00 (0000ms, 0425ms total)
T0B88 000:718 JLINK_WriteReg(R11, 0x00000000)  returns 0x00 (0000ms, 0425ms total)
T0B88 000:718 JLINK_WriteReg(R12, 0x00000000)  returns 0x00 (0000ms, 0425ms total)
T0B88 000:718 JLINK_WriteReg(R13, 0x20000800)  returns 0x00 (0000ms, 0425ms total)
T0B88 000:718 JLINK_WriteReg(R14, 0x20000001)  returns 0x00 (0000ms, 0425ms total)
T0B88 000:718 JLINK_WriteReg(R15, 0x20000054)  returns 0x00 (0000ms, 0425ms total)
T0B88 000:718 JLINK_WriteReg(XPSR, 0x01000000)  returns 0x00 (0000ms, 0425ms total)
T0B88 000:718 JLINK_WriteReg(MSP, 0x20000800)  returns 0x00 (0000ms, 0425ms total)
T0B88 000:718 JLINK_WriteReg(PSP, 0x20000800)  returns 0x00 (0000ms, 0425ms total)
T0B88 000:718 JLINK_WriteReg(CFBP, 0x00000000)  returns 0x00 (0000ms, 0425ms total)
T0B88 000:718 JLINK_SetBPEx(Addr = 0x20000000, Type = 0xFFFFFFF2) -- CPU_ReadMem(2 bytes @ 0x20000000)  returns 0x00000001 (0001ms, 0426ms total)
T0B88 000:719 JLINK_Go() -- CPU_WriteMem(2 bytes @ 0x20000000) -- CPU_WriteMem(4 bytes @ 0xE0002008) -- CPU_WriteMem(4 bytes @ 0xE000200C) -- CPU_WriteMem(4 bytes @ 0xE0002010) -- CPU_WriteMem(4 bytes @ 0xE0002014) -- CPU_WriteMem(4 bytes @ 0xE0002018) -- CPU_WriteMem(4 bytes @ 0xE000201C) (0010ms, 0436ms total)
T0B88 000:729 JLINK_IsHalted() -- CPU_ReadMem(2 bytes @ 0x20000000)  returns TRUE (0005ms, 0441ms total)
T0B88 000:734 JLINK_ReadReg(R15)  returns 0x20000000 (0000ms, 0436ms total)
T0B88 000:734 JLINK_ClrBPEx(BPHandle = 0x00000001)  returns 0x00 (0000ms, 0436ms total)
T0B88 000:734 JLINK_ReadReg(R0)  returns 0x00000000 (0000ms, 0436ms total)
T0B88 000:734 JLINK_WriteReg(R0, 0x08004000)  returns 0x00 (0000ms, 0436ms total)
T0B88 000:734 JLINK_WriteReg(R1, 0x00004000)  returns 0x00 (0001ms, 0437ms total)
T0B88 000:735 JLINK_WriteReg(R2, 0x000000FF)  returns 0x00 (0000ms, 0437ms total)
T0B88 000:735 JLINK_WriteReg(R3, 0x00000000)  returns 0x00 (0000ms, 0437ms total)
T0B88 000:735 JLINK_WriteReg(R4, 0x00000000)  returns 0x00 (0000ms, 0437ms total)
T0B88 000:735 JLINK_WriteReg(R5, 0x00000000)  returns 0x00 (0000ms, 0437ms total)
T0B88 000:735 JLINK_WriteReg(R6, 0x00000000)  returns 0x00 (0000ms, 0437ms total)
T0B88 000:735 JLINK_WriteReg(R7, 0x00000000)  returns 0x00 (0000ms, 0437ms total)
T0B88 000:735 JLINK_WriteReg(R8, 0x00000000)  returns 0x00 (0000ms, 0437ms total)
T0B88 000:735 JLINK_WriteReg(R9, 0x2000017C)  returns 0x00 (0000ms, 0437ms total)
T0B88 000:735 JLINK_WriteReg(R10, 0x00000000)  returns 0x00 (0000ms, 0437ms total)
T0B88 000:735 JLINK_WriteReg(R11, 0x00000000)  returns 0x00 (0000ms, 0437ms total)
T0B88 000:735 JLINK_WriteReg(R12, 0x00000000)  returns 0x00 (0000ms, 0437ms total)
T0B88 000:735 JLINK_WriteReg(R13, 0x20000800)  returns 0x00 (0000ms, 0437ms total)
T0B88 000:735 JLINK_WriteReg(R14, 0x20000001)  returns 0x00 (0000ms, 0437ms total)
T0B88 000:735 JLINK_WriteReg(R15, 0x20000020)  returns 0x00 (0000ms, 0437ms total)
T0B88 000:735 JLINK_WriteReg(XPSR, 0x01000000)  returns 0x00 (0000ms, 0437ms total)
T0B88 000:735 JLINK_WriteReg(MSP, 0x20000800)  returns 0x00 (0000ms, 0437ms total)
T0B88 000:735 JLINK_WriteReg(PSP, 0x20000800)  returns 0x00 (0000ms, 0437ms total)
T0B88 000:735 JLINK_WriteReg(CFBP, 0x00000000)  returns 0x00 (0000ms, 0437ms total)
T0B88 000:735 JLINK_SetBPEx(Addr = 0x20000000, Type = 0xFFFFFFF2)  returns 0x00000002 (0000ms, 0437ms total)
T0B88 000:735 JLINK_Go() (0003ms, 0440ms total)
T0B88 000:738 JLINK_IsHalted() -- CPU_ReadMem(2 bytes @ 0x20000000)  returns TRUE (0004ms, 0444ms total)
T0B88 000:742 JLINK_ReadReg(R15)  returns 0x20000000 (0000ms, 0440ms total)
T0B88 000:742 JLINK_ClrBPEx(BPHandle = 0x00000002)  returns 0x00 (0000ms, 0440ms total)
T0B88 000:742 JLINK_ReadReg(R0)  returns 0x00000001 (0000ms, 0440ms total)
T0B88 000:742 JLINK_WriteReg(R0, 0x08004000)  returns 0x00 (0000ms, 0440ms total)
T0B88 000:742 JLINK_WriteReg(R1, 0x00004000)  returns 0x00 (0000ms, 0440ms total)
T0B88 000:742 JLINK_WriteReg(R2, 0x000000FF)  returns 0x00 (0000ms, 0440ms total)
T0B88 000:742 JLINK_WriteReg(R3, 0x00000000)  returns 0x00 (0000ms, 0440ms total)
T0B88 000:742 JLINK_WriteReg(R4, 0x00000000)  returns 0x00 (0000ms, 0440ms total)
T0B88 000:742 JLINK_WriteReg(R5, 0x00000000)  returns 0x00 (0000ms, 0440ms total)
T0B88 000:742 JLINK_WriteReg(R6, 0x00000000)  returns 0x00 (0000ms, 0440ms total)
T0B88 000:742 JLINK_WriteReg(R7, 0x00000000)  returns 0x00 (0000ms, 0440ms total)
T0B88 000:742 JLINK_WriteReg(R8, 0x00000000)  returns 0x00 (0000ms, 0440ms total)
T0B88 000:742 JLINK_WriteReg(R9, 0x2000017C)  returns 0x00 (0000ms, 0440ms total)
T0B88 000:742 JLINK_WriteReg(R10, 0x00000000)  returns 0x00 (0000ms, 0440ms total)
T0B88 000:742 JLINK_WriteReg(R11, 0x00000000)  returns 0x00 (0000ms, 0440ms total)
T0B88 000:742 JLINK_WriteReg(R12, 0x00000000)  returns 0x00 (0001ms, 0441ms total)
T0B88 000:743 JLINK_WriteReg(R13, 0x20000800)  returns 0x00 (0000ms, 0441ms total)
T0B88 000:743 JLINK_WriteReg(R14, 0x20000001)  returns 0x00 (0000ms, 0441ms total)
T0B88 000:743 JLINK_WriteReg(R15, 0x200000BC)  returns 0x00 (0000ms, 0441ms total)
T0B88 000:743 JLINK_WriteReg(XPSR, 0x01000000)  returns 0x00 (0000ms, 0441ms total)
T0B88 000:743 JLINK_WriteReg(MSP, 0x20000800)  returns 0x00 (0000ms, 0441ms total)
T0B88 000:743 JLINK_WriteReg(PSP, 0x20000800)  returns 0x00 (0000ms, 0441ms total)
T0B88 000:743 JLINK_WriteReg(CFBP, 0x00000000)  returns 0x00 (0000ms, 0441ms total)
T0B88 000:743 JLINK_SetBPEx(Addr = 0x20000000, Type = 0xFFFFFFF2)  returns 0x00000003 (0000ms, 0441ms total)
T0B88 000:743 JLINK_Go() (0002ms, 0443ms total)
T0B88 000:745 JLINK_IsHalted()  returns FALSE (0001ms, 0444ms total)
T0B88 000:925 JLINK_IsHalted()  returns FALSE (0001ms, 0444ms total)
T0B88 001:104 JLINK_IsHalted()  returns FALSE (0002ms, 0445ms total)
T0B88 001:251 JLINK_IsHalted() -- CPU_ReadMem(2 bytes @ 0x20000000)  returns TRUE (0003ms, 0446ms total)
T0B88 001:254 JLINK_ReadReg(R15)  returns 0x20000000 (0000ms, 0443ms total)
T0B88 001:254 JLINK_ClrBPEx(BPHandle = 0x00000003)  returns 0x00 (0000ms, 0443ms total)
T0B88 001:254 JLINK_ReadReg(R0)  returns 0x00000000 (0000ms, 0443ms total)
T0B88 001:255 JLINK_WriteReg(R0, 0x08008000)  returns 0x00 (0000ms, 0443ms total)
T0B88 001:255 JLINK_WriteReg(R1, 0x00004000)  returns 0x00 (0000ms, 0443ms total)
T0B88 001:255 JLINK_WriteReg(R2, 0x000000FF)  returns 0x00 (0000ms, 0443ms total)
T0B88 001:255 JLINK_WriteReg(R3, 0x00000000)  returns 0x00 (0000ms, 0443ms total)
T0B88 001:255 JLINK_WriteReg(R4, 0x00000000)  returns 0x00 (0000ms, 0443ms total)
T0B88 001:255 JLINK_WriteReg(R5, 0x00000000)  returns 0x00 (0000ms, 0443ms total)
T0B88 001:255 JLINK_WriteReg(R6, 0x00000000)  returns 0x00 (0000ms, 0443ms total)
T0B88 001:255 JLINK_WriteReg(R7, 0x00000000)  returns 0x00 (0000ms, 0443ms total)
T0B88 001:255 JLINK_WriteReg(R8, 0x00000000)  returns 0x00 (0000ms, 0443ms total)
T0B88 001:255 JLINK_WriteReg(R9, 0x2000017C)  returns 0x00 (0000ms, 0443ms total)
T0B88 001:255 JLINK_WriteReg(R10, 0x00000000)  returns 0x00 (0000ms, 0443ms total)
T0B88 001:255 JLINK_WriteReg(R11, 0x00000000)  returns 0x00 (0000ms, 0443ms total)
T0B88 001:255 JLINK_WriteReg(R12, 0x00000000)  returns 0x00 (0000ms, 0443ms total)
T0B88 001:255 JLINK_WriteReg(R13, 0x20000800)  returns 0x00 (0000ms, 0443ms total)
T0B88 001:255 JLINK_WriteReg(R14, 0x20000001)  returns 0x00 (0000ms, 0443ms total)
T0B88 001:255 JLINK_WriteReg(R15, 0x20000020)  returns 0x00 (0000ms, 0443ms total)
T0B88 001:255 JLINK_WriteReg(XPSR, 0x01000000)  returns 0x00 (0000ms, 0443ms total)
T0B88 001:255 JLINK_WriteReg(MSP, 0x20000800)  returns 0x00 (0000ms, 0443ms total)
T0B88 001:255 JLINK_WriteReg(PSP, 0x20000800)  returns 0x00 (0000ms, 0443ms total)
T0B88 001:255 JLINK_WriteReg(CFBP, 0x00000000)  returns 0x00 (0000ms, 0443ms total)
T0B88 001:255 JLINK_SetBPEx(Addr = 0x20000000, Type = 0xFFFFFFF2)  returns 0x00000004 (0001ms, 0444ms total)
T0B88 001:256 JLINK_Go() (0002ms, 0446ms total)
T0B88 001:258 JLINK_IsHalted() -- CPU_ReadMem(2 bytes @ 0x20000000)  returns TRUE (0004ms, 0450ms total)
T0B88 001:262 JLINK_ReadReg(R15)  returns 0x20000000 (0000ms, 0446ms total)
T0B88 001:262 JLINK_ClrBPEx(BPHandle = 0x00000004)  returns 0x00 (0000ms, 0446ms total)
T0B88 001:262 JLINK_ReadReg(R0)  returns 0x00000001 (0000ms, 0446ms total)
T0B88 001:262 JLINK_WriteReg(R0, 0x08008000)  returns 0x00 (0000ms, 0446ms total)
T0B88 001:262 JLINK_WriteReg(R1, 0x00004000)  returns 0x00 (0000ms, 0446ms total)
T0B88 001:263 JLINK_WriteReg(R2, 0x000000FF)  returns 0x00 (0000ms, 0447ms total)
T0B88 001:263 JLINK_WriteReg(R3, 0x00000000)  returns 0x00 (0000ms, 0447ms total)
T0B88 001:263 JLINK_WriteReg(R4, 0x00000000)  returns 0x00 (0000ms, 0447ms total)
T0B88 001:263 JLINK_WriteReg(R5, 0x00000000)  returns 0x00 (0000ms, 0447ms total)
T0B88 001:263 JLINK_WriteReg(R6, 0x00000000)  returns 0x00 (0000ms, 0447ms total)
T0B88 001:263 JLINK_WriteReg(R7, 0x00000000)  returns 0x00 (0000ms, 0447ms total)
T0B88 001:263 JLINK_WriteReg(R8, 0x00000000)  returns 0x00 (0000ms, 0447ms total)
T0B88 001:263 JLINK_WriteReg(R9, 0x2000017C)  returns 0x00 (0000ms, 0447ms total)
T0B88 001:263 JLINK_WriteReg(R10, 0x00000000)  returns 0x00 (0000ms, 0447ms total)
T0B88 001:263 JLINK_WriteReg(R11, 0x00000000)  returns 0x00 (0000ms, 0447ms total)
T0B88 001:263 JLINK_WriteReg(R12, 0x00000000)  returns 0x00 (0000ms, 0447ms total)
T0B88 001:263 JLINK_WriteReg(R13, 0x20000800)  returns 0x00 (0000ms, 0447ms total)
T0B88 001:263 JLINK_WriteReg(R14, 0x20000001)  returns 0x00 (0000ms, 0447ms total)
T0B88 001:263 JLINK_WriteReg(R15, 0x200000BC)  returns 0x00 (0000ms, 0447ms total)
T0B88 001:263 JLINK_WriteReg(XPSR, 0x01000000)  returns 0x00 (0000ms, 0447ms total)
T0B88 001:263 JLINK_WriteReg(MSP, 0x20000800)  returns 0x00 (0000ms, 0447ms total)
T0B88 001:263 JLINK_WriteReg(PSP, 0x20000800)  returns 0x00 (0000ms, 0447ms total)
T0B88 001:263 JLINK_WriteReg(CFBP, 0x00000000)  returns 0x00 (0000ms, 0447ms total)
T0B88 001:263 JLINK_SetBPEx(Addr = 0x20000000, Type = 0xFFFFFFF2)  returns 0x00000005 (0000ms, 0447ms total)
T0B88 001:263 JLINK_Go() (0002ms, 0449ms total)
T0B88 001:265 JLINK_IsHalted()  returns FALSE (0001ms, 0450ms total)
T0B88 001:420 JLINK_IsHalted()  returns FALSE (0000ms, 0449ms total)
T0B88 001:572 JLINK_IsHalted()  returns FALSE (0001ms, 0450ms total)
T0B88 001:720 JLINK_IsHalted() -- CPU_ReadMem(2 bytes @ 0x20000000)  returns TRUE (0003ms, 0452ms total)
T0B88 001:723 JLINK_ReadReg(R15)  returns 0x20000000 (0000ms, 0449ms total)
T0B88 001:723 JLINK_ClrBPEx(BPHandle = 0x00000005)  returns 0x00 (0000ms, 0449ms total)
T0B88 001:723 JLINK_ReadReg(R0)  returns 0x00000000 (0001ms, 0450ms total)
T0B88 001:724 JLINK_WriteReg(R0, 0x0800C000)  returns 0x00 (0000ms, 0450ms total)
T0B88 001:724 JLINK_WriteReg(R1, 0x00004000)  returns 0x00 (0000ms, 0450ms total)
T0B88 001:724 JLINK_WriteReg(R2, 0x000000FF)  returns 0x00 (0000ms, 0450ms total)
T0B88 001:724 JLINK_WriteReg(R3, 0x00000000)  returns 0x00 (0000ms, 0450ms total)
T0B88 001:724 JLINK_WriteReg(R4, 0x00000000)  returns 0x00 (0000ms, 0450ms total)
T0B88 001:724 JLINK_WriteReg(R5, 0x00000000)  returns 0x00 (0000ms, 0450ms total)
T0B88 001:724 JLINK_WriteReg(R6, 0x00000000)  returns 0x00 (0000ms, 0450ms total)
T0B88 001:724 JLINK_WriteReg(R7, 0x00000000)  returns 0x00 (0000ms, 0450ms total)
T0B88 001:724 JLINK_WriteReg(R8, 0x00000000)  returns 0x00 (0001ms, 0451ms total)
T0B88 001:725 JLINK_WriteReg(R9, 0x2000017C)  returns 0x00 (0000ms, 0451ms total)
T0B88 001:725 JLINK_WriteReg(R10, 0x00000000)  returns 0x00 (0000ms, 0451ms total)
T0B88 001:725 JLINK_WriteReg(R11, 0x00000000)  returns 0x00 (0000ms, 0451ms total)
T0B88 001:725 JLINK_WriteReg(R12, 0x00000000)  returns 0x00 (0000ms, 0451ms total)
T0B88 001:725 JLINK_WriteReg(R13, 0x20000800)  returns 0x00 (0000ms, 0451ms total)
T0B88 001:725 JLINK_WriteReg(R14, 0x20000001)  returns 0x00 (0000ms, 0451ms total)
T0B88 001:725 JLINK_WriteReg(R15, 0x20000020)  returns 0x00 (0000ms, 0451ms total)
T0B88 001:725 JLINK_WriteReg(XPSR, 0x01000000)  returns 0x00 (0000ms, 0451ms total)
T0B88 001:725 JLINK_WriteReg(MSP, 0x20000800)  returns 0x00 (0000ms, 0451ms total)
T0B88 001:725 JLINK_WriteReg(PSP, 0x20000800)  returns 0x00 (0000ms, 0451ms total)
T0B88 001:725 JLINK_WriteReg(CFBP, 0x00000000)  returns 0x00 (0000ms, 0451ms total)
T0B88 001:725 JLINK_SetBPEx(Addr = 0x20000000, Type = 0xFFFFFFF2)  returns 0x00000006 (0000ms, 0451ms total)
T0B88 001:725 JLINK_Go() (0002ms, 0453ms total)
T0B88 001:727 JLINK_IsHalted() -- CPU_ReadMem(2 bytes @ 0x20000000)  returns TRUE (0005ms, 0458ms total)
T0B88 001:732 JLINK_ReadReg(R15)  returns 0x20000000 (0000ms, 0453ms total)
T0B88 001:732 JLINK_ClrBPEx(BPHandle = 0x00000006)  returns 0x00 (0000ms, 0453ms total)
T0B88 001:732 JLINK_ReadReg(R0)  returns 0x00000001 (0000ms, 0453ms total)
T0B88 001:732 JLINK_WriteReg(R0, 0x0800C000)  returns 0x00 (0000ms, 0453ms total)
T0B88 001:732 JLINK_WriteReg(R1, 0x00004000)  returns 0x00 (0000ms, 0453ms total)
T0B88 001:732 JLINK_WriteReg(R2, 0x000000FF)  returns 0x00 (0000ms, 0453ms total)
T0B88 001:732 JLINK_WriteReg(R3, 0x00000000)  returns 0x00 (0000ms, 0453ms total)
T0B88 001:732 JLINK_WriteReg(R4, 0x00000000)  returns 0x00 (0000ms, 0453ms total)
T0B88 001:732 JLINK_WriteReg(R5, 0x00000000)  returns 0x00 (0000ms, 0453ms total)
T0B88 001:732 JLINK_WriteReg(R6, 0x00000000)  returns 0x00 (0000ms, 0453ms total)
T0B88 001:732 JLINK_WriteReg(R7, 0x00000000)  returns 0x00 (0000ms, 0453ms total)
T0B88 001:732 JLINK_WriteReg(R8, 0x00000000)  returns 0x00 (0000ms, 0453ms total)
T0B88 001:732 JLINK_WriteReg(R9, 0x2000017C)  returns 0x00 (0000ms, 0453ms total)
T0B88 001:732 JLINK_WriteReg(R10, 0x00000000)  returns 0x00 (0000ms, 0453ms total)
T0B88 001:732 JLINK_WriteReg(R11, 0x00000000)  returns 0x00 (0000ms, 0453ms total)
T0B88 001:732 JLINK_WriteReg(R12, 0x00000000)  returns 0x00 (0000ms, 0453ms total)
T0B88 001:732 JLINK_WriteReg(R13, 0x20000800)  returns 0x00 (0000ms, 0453ms total)
T0B88 001:732 JLINK_WriteReg(R14, 0x20000001)  returns 0x00 (0000ms, 0453ms total)
T0B88 001:732 JLINK_WriteReg(R15, 0x200000BC)  returns 0x00 (0000ms, 0453ms total)
T0B88 001:732 JLINK_WriteReg(XPSR, 0x01000000)  returns 0x00 (0000ms, 0453ms total)
T0B88 001:732 JLINK_WriteReg(MSP, 0x20000800)  returns 0x00 (0000ms, 0453ms total)
T0B88 001:732 JLINK_WriteReg(PSP, 0x20000800)  returns 0x00 (0000ms, 0453ms total)
T0B88 001:732 JLINK_WriteReg(CFBP, 0x00000000)  returns 0x00 (0000ms, 0453ms total)
T0B88 001:732 JLINK_SetBPEx(Addr = 0x20000000, Type = 0xFFFFFFF2)  returns 0x00000007 (0000ms, 0453ms total)
T0B88 001:732 JLINK_Go() (0003ms, 0456ms total)
T0B88 001:735 JLINK_IsHalted()  returns FALSE (0001ms, 0457ms total)
T0B88 001:884 JLINK_IsHalted()  returns FALSE (0001ms, 0457ms total)
T0B88 002:035 JLINK_IsHalted()  returns FALSE (0001ms, 0457ms total)
T0B88 002:181 JLINK_IsHalted() -- CPU_ReadMem(2 bytes @ 0x20000000)  returns TRUE (0006ms, 0462ms total)
T0B88 002:187 JLINK_ReadReg(R15)  returns 0x20000000 (0000ms, 0456ms total)
T0B88 002:187 JLINK_ClrBPEx(BPHandle = 0x00000007)  returns 0x00 (0000ms, 0456ms total)
T0B88 002:187 JLINK_ReadReg(R0)  returns 0x00000000 (0000ms, 0456ms total)
T0B88 002:187 JLINK_WriteReg(R0, 0x08010000)  returns 0x00 (0000ms, 0456ms total)
T0B88 002:187 JLINK_WriteReg(R1, 0x00010000)  returns 0x00 (0000ms, 0456ms total)
T0B88 002:187 JLINK_WriteReg(R2, 0x000000FF)  returns 0x00 (0001ms, 0457ms total)
T0B88 002:188 JLINK_WriteReg(R3, 0x00000000)  returns 0x00 (0000ms, 0457ms total)
T0B88 002:188 JLINK_WriteReg(R4, 0x00000000)  returns 0x00 (0000ms, 0457ms total)
T0B88 002:188 JLINK_WriteReg(R5, 0x00000000)  returns 0x00 (0000ms, 0457ms total)
T0B88 002:188 JLINK_WriteReg(R6, 0x00000000)  returns 0x00 (0000ms, 0457ms total)
T0B88 002:188 JLINK_WriteReg(R7, 0x00000000)  returns 0x00 (0000ms, 0457ms total)
T0B88 002:188 JLINK_WriteReg(R8, 0x00000000)  returns 0x00 (0000ms, 0457ms total)
T0B88 002:188 JLINK_WriteReg(R9, 0x2000017C)  returns 0x00 (0000ms, 0457ms total)
T0B88 002:188 JLINK_WriteReg(R10, 0x00000000)  returns 0x00 (0000ms, 0457ms total)
T0B88 002:188 JLINK_WriteReg(R11, 0x00000000)  returns 0x00 (0000ms, 0457ms total)
T0B88 002:188 JLINK_WriteReg(R12, 0x00000000)  returns 0x00 (0000ms, 0457ms total)
T0B88 002:188 JLINK_WriteReg(R13, 0x20000800)  returns 0x00 (0000ms, 0457ms total)
T0B88 002:188 JLINK_WriteReg(R14, 0x20000001)  returns 0x00 (0000ms, 0457ms total)
T0B88 002:188 JLINK_WriteReg(R15, 0x20000020)  returns 0x00 (0000ms, 0457ms total)
T0B88 002:188 JLINK_WriteReg(XPSR, 0x01000000)  returns 0x00 (0000ms, 0457ms total)
T0B88 002:188 JLINK_WriteReg(MSP, 0x20000800)  returns 0x00 (0000ms, 0457ms total)
T0B88 002:188 JLINK_WriteReg(PSP, 0x20000800)  returns 0x00 (0000ms, 0457ms total)
T0B88 002:188 JLINK_WriteReg(CFBP, 0x00000000)  returns 0x00 (0000ms, 0457ms total)
T0B88 002:188 JLINK_SetBPEx(Addr = 0x20000000, Type = 0xFFFFFFF2)  returns 0x00000008 (0000ms, 0457ms total)
T0B88 002:188 JLINK_Go() (0003ms, 0460ms total)
T0B88 002:191 JLINK_IsHalted() -- CPU_ReadMem(2 bytes @ 0x20000000)  returns TRUE (0004ms, 0464ms total)
T0B88 002:195 JLINK_ReadReg(R15)  returns 0x20000000 (0000ms, 0460ms total)
T0B88 002:195 JLINK_ClrBPEx(BPHandle = 0x00000008)  returns 0x00 (0000ms, 0460ms total)
T0B88 002:195 JLINK_ReadReg(R0)  returns 0x00000001 (0000ms, 0460ms total)
T0B88 002:195 JLINK_WriteReg(R0, 0x08010000)  returns 0x00 (0000ms, 0460ms total)
T0B88 002:195 JLINK_WriteReg(R1, 0x00010000)  returns 0x00 (0000ms, 0460ms total)
T0B88 002:195 JLINK_WriteReg(R2, 0x000000FF)  returns 0x00 (0000ms, 0460ms total)
T0B88 002:195 JLINK_WriteReg(R3, 0x00000000)  returns 0x00 (0000ms, 0460ms total)
T0B88 002:195 JLINK_WriteReg(R4, 0x00000000)  returns 0x00 (0000ms, 0460ms total)
T0B88 002:195 JLINK_WriteReg(R5, 0x00000000)  returns 0x00 (0000ms, 0460ms total)
T0B88 002:195 JLINK_WriteReg(R6, 0x00000000)  returns 0x00 (0000ms, 0460ms total)
T0B88 002:195 JLINK_WriteReg(R7, 0x00000000)  returns 0x00 (0000ms, 0460ms total)
T0B88 002:195 JLINK_WriteReg(R8, 0x00000000)  returns 0x00 (0000ms, 0460ms total)
T0B88 002:195 JLINK_WriteReg(R9, 0x2000017C)  returns 0x00 (0000ms, 0460ms total)
T0B88 002:195 JLINK_WriteReg(R10, 0x00000000)  returns 0x00 (0000ms, 0460ms total)
T0B88 002:195 JLINK_WriteReg(R11, 0x00000000)  returns 0x00 (0000ms, 0460ms total)
T0B88 002:195 JLINK_WriteReg(R12, 0x00000000)  returns 0x00 (0000ms, 0460ms total)
T0B88 002:195 JLINK_WriteReg(R13, 0x20000800)  returns 0x00 (0000ms, 0460ms total)
T0B88 002:195 JLINK_WriteReg(R14, 0x20000001)  returns 0x00 (0000ms, 0460ms total)
T0B88 002:195 JLINK_WriteReg(R15, 0x200000BC)  returns 0x00 (0000ms, 0460ms total)
T0B88 002:195 JLINK_WriteReg(XPSR, 0x01000000)  returns 0x00 (0000ms, 0460ms total)
T0B88 002:195 JLINK_WriteReg(MSP, 0x20000800)  returns 0x00 (0000ms, 0460ms total)
T0B88 002:195 JLINK_WriteReg(PSP, 0x20000800)  returns 0x00 (0000ms, 0460ms total)
T0B88 002:195 JLINK_WriteReg(CFBP, 0x00000000)  returns 0x00 (0001ms, 0461ms total)
T0B88 002:196 JLINK_SetBPEx(Addr = 0x20000000, Type = 0xFFFFFFF2)  returns 0x00000009 (0000ms, 0461ms total)
T0B88 002:196 JLINK_Go() (0002ms, 0463ms total)
T0B88 002:198 JLINK_IsHalted()  returns FALSE (0001ms, 0464ms total)
T0B88 002:345 JLINK_IsHalted()  returns FALSE (0000ms, 0463ms total)
T0B88 002:495 JLINK_IsHalted()  returns FALSE (0001ms, 0464ms total)
T0B88 002:644 JLINK_IsHalted()  returns FALSE (0001ms, 0464ms total)
T0B88 002:786 JLINK_IsHalted()  returns FALSE (0001ms, 0464ms total)
T0B88 002:931 JLINK_IsHalted()  returns FALSE (0001ms, 0464ms total)
T0B88 003:075 JLINK_IsHalted()  returns FALSE (0001ms, 0464ms total)
T0B88 003:214 JLINK_IsHalted()  returns FALSE (0001ms, 0464ms total)
T0B88 003:362 JLINK_IsHalted() -- CPU_ReadMem(2 bytes @ 0x20000000)  returns TRUE (0004ms, 0467ms total)
T0B88 003:366 JLINK_ReadReg(R15)  returns 0x20000000 (0000ms, 0463ms total)
T0B88 003:366 JLINK_ClrBPEx(BPHandle = 0x00000009)  returns 0x00 (0000ms, 0463ms total)
T0B88 003:366 JLINK_ReadReg(R0)  returns 0x00000000 (0000ms, 0463ms total)
T0B88 003:367 JLINK_WriteReg(R0, 0x08020000)  returns 0x00 (0000ms, 0463ms total)
T0B88 003:367 JLINK_WriteReg(R1, 0x00020000)  returns 0x00 (0000ms, 0463ms total)
T0B88 003:367 JLINK_WriteReg(R2, 0x000000FF)  returns 0x00 (0000ms, 0463ms total)
T0B88 003:367 JLINK_WriteReg(R3, 0x00000000)  returns 0x00 (0000ms, 0463ms total)
T0B88 003:367 JLINK_WriteReg(R4, 0x00000000)  returns 0x00 (0000ms, 0463ms total)
T0B88 003:367 JLINK_WriteReg(R5, 0x00000000)  returns 0x00 (0000ms, 0463ms total)
T0B88 003:367 JLINK_WriteReg(R6, 0x00000000)  returns 0x00 (0000ms, 0463ms total)
T0B88 003:367 JLINK_WriteReg(R7, 0x00000000)  returns 0x00 (0000ms, 0463ms total)
T0B88 003:367 JLINK_WriteReg(R8, 0x00000000)  returns 0x00 (0000ms, 0463ms total)
T0B88 003:367 JLINK_WriteReg(R9, 0x2000017C)  returns 0x00 (0000ms, 0463ms total)
T0B88 003:367 JLINK_WriteReg(R10, 0x00000000)  returns 0x00 (0000ms, 0463ms total)
T0B88 003:367 JLINK_WriteReg(R11, 0x00000000)  returns 0x00 (0000ms, 0463ms total)
T0B88 003:367 JLINK_WriteReg(R12, 0x00000000)  returns 0x00 (0000ms, 0463ms total)
T0B88 003:367 JLINK_WriteReg(R13, 0x20000800)  returns 0x00 (0000ms, 0463ms total)
T0B88 003:367 JLINK_WriteReg(R14, 0x20000001)  returns 0x00 (0000ms, 0463ms total)
T0B88 003:367 JLINK_WriteReg(R15, 0x20000020)  returns 0x00 (0000ms, 0463ms total)
T0B88 003:367 JLINK_WriteReg(XPSR, 0x01000000)  returns 0x00 (0000ms, 0463ms total)
T0B88 003:367 JLINK_WriteReg(MSP, 0x20000800)  returns 0x00 (0000ms, 0463ms total)
T0B88 003:367 JLINK_WriteReg(PSP, 0x20000800)  returns 0x00 (0000ms, 0463ms total)
T0B88 003:367 JLINK_WriteReg(CFBP, 0x00000000)  returns 0x00 (0000ms, 0463ms total)
T0B88 003:367 JLINK_SetBPEx(Addr = 0x20000000, Type = 0xFFFFFFF2)  returns 0x0000000A (0000ms, 0463ms total)
T0B88 003:367 JLINK_Go() (0003ms, 0466ms total)
T0B88 003:370 JLINK_IsHalted() -- CPU_ReadMem(2 bytes @ 0x20000000)  returns TRUE (0005ms, 0471ms total)
T0B88 003:375 JLINK_ReadReg(R15)  returns 0x20000000 (0000ms, 0466ms total)
T0B88 003:375 JLINK_ClrBPEx(BPHandle = 0x0000000A)  returns 0x00 (0000ms, 0466ms total)
T0B88 003:375 JLINK_ReadReg(R0)  returns 0x00000001 (0000ms, 0466ms total)
T0B88 003:375 JLINK_WriteReg(R0, 0x08020000)  returns 0x00 (0000ms, 0466ms total)
T0B88 003:375 JLINK_WriteReg(R1, 0x00020000)  returns 0x00 (0000ms, 0466ms total)
T0B88 003:375 JLINK_WriteReg(R2, 0x000000FF)  returns 0x00 (0000ms, 0466ms total)
T0B88 003:375 JLINK_WriteReg(R3, 0x00000000)  returns 0x00 (0000ms, 0466ms total)
T0B88 003:375 JLINK_WriteReg(R4, 0x00000000)  returns 0x00 (0000ms, 0466ms total)
T0B88 003:375 JLINK_WriteReg(R5, 0x00000000)  returns 0x00 (0000ms, 0466ms total)
T0B88 003:375 JLINK_WriteReg(R6, 0x00000000)  returns 0x00 (0000ms, 0466ms total)
T0B88 003:375 JLINK_WriteReg(R7, 0x00000000)  returns 0x00 (0000ms, 0466ms total)
T0B88 003:375 JLINK_WriteReg(R8, 0x00000000)  returns 0x00 (0000ms, 0466ms total)
T0B88 003:375 JLINK_WriteReg(R9, 0x2000017C)  returns 0x00 (0000ms, 0466ms total)
T0B88 003:375 JLINK_WriteReg(R10, 0x00000000)  returns 0x00 (0000ms, 0466ms total)
T0B88 003:375 JLINK_WriteReg(R11, 0x00000000)  returns 0x00 (0000ms, 0466ms total)
T0B88 003:375 JLINK_WriteReg(R12, 0x00000000)  returns 0x00 (0000ms, 0466ms total)
T0B88 003:375 JLINK_WriteReg(R13, 0x20000800)  returns 0x00 (0000ms, 0466ms total)
T0B88 003:375 JLINK_WriteReg(R14, 0x20000001)  returns 0x00 (0000ms, 0466ms total)
T0B88 003:375 JLINK_WriteReg(R15, 0x200000BC)  returns 0x00 (0000ms, 0466ms total)
T0B88 003:375 JLINK_WriteReg(XPSR, 0x01000000)  returns 0x00 (0000ms, 0466ms total)
T0B88 003:375 JLINK_WriteReg(MSP, 0x20000800)  returns 0x00 (0000ms, 0466ms total)
T0B88 003:375 JLINK_WriteReg(PSP, 0x20000800)  returns 0x00 (0000ms, 0466ms total)
T0B88 003:375 JLINK_WriteReg(CFBP, 0x00000000)  returns 0x00 (0000ms, 0466ms total)
T0B88 003:375 JLINK_SetBPEx(Addr = 0x20000000, Type = 0xFFFFFFF2)  returns 0x0000000B (0000ms, 0466ms total)
T0B88 003:375 JLINK_Go() (0002ms, 0468ms total)
T0B88 003:377 JLINK_IsHalted()  returns FALSE (0001ms, 0469ms total)
T0B88 003:524 JLINK_IsHalted()  returns FALSE (0001ms, 0469ms total)
T0B88 003:674 JLINK_IsHalted()  returns FALSE (0000ms, 0468ms total)
T0B88 003:816 JLINK_IsHalted()  returns FALSE (0001ms, 0469ms total)
T0B88 003:964 JLINK_IsHalted()  returns FALSE (0001ms, 0469ms total)
T0B88 004:109 JLINK_IsHalted()  returns FALSE (0001ms, 0469ms total)
T0B88 004:250 JLINK_IsHalted()  returns FALSE (0000ms, 0468ms total)
T0B88 004:389 JLINK_IsHalted()  returns FALSE (0000ms, 0468ms total)
T0B88 004:534 JLINK_IsHalted()  returns FALSE (0001ms, 0469ms total)
T0B88 004:680 JLINK_IsHalted()  returns FALSE (0000ms, 0468ms total)
T0B88 004:825 JLINK_IsHalted()  returns FALSE (0001ms, 0469ms total)
T0B88 004:964 JLINK_IsHalted()  returns FALSE (0001ms, 0469ms total)
T0B88 005:114 JLINK_IsHalted()  returns FALSE (0001ms, 0469ms total)
T0B88 005:256 JLINK_IsHalted()  returns FALSE (0001ms, 0469ms total)
T0B88 005:432 JLINK_IsHalted() -- CPU_ReadMem(2 bytes @ 0x20000000)  returns TRUE (0003ms, 0471ms total)
T0B88 005:435 JLINK_ReadReg(R15)  returns 0x20000000 (0000ms, 0468ms total)
T0B88 005:435 JLINK_ClrBPEx(BPHandle = 0x0000000B)  returns 0x00 (0001ms, 0469ms total)
T0B88 005:436 JLINK_ReadReg(R0)  returns 0x00000000 (0000ms, 0469ms total)
T0B88 005:436 JLINK_WriteReg(R0, 0x00000001)  returns 0x00 (0000ms, 0469ms total)
T0B88 005:436 JLINK_WriteReg(R1, 0x00020000)  returns 0x00 (0001ms, 0470ms total)
T0B88 005:437 JLINK_WriteReg(R2, 0x000000FF)  returns 0x00 (0000ms, 0470ms total)
T0B88 005:437 JLINK_WriteReg(R3, 0x00000000)  returns 0x00 (0000ms, 0470ms total)
T0B88 005:437 JLINK_WriteReg(R4, 0x00000000)  returns 0x00 (0000ms, 0470ms total)
T0B88 005:437 JLINK_WriteReg(R5, 0x00000000)  returns 0x00 (0000ms, 0470ms total)
T0B88 005:437 JLINK_WriteReg(R6, 0x00000000)  returns 0x00 (0000ms, 0470ms total)
T0B88 005:437 JLINK_WriteReg(R7, 0x00000000)  returns 0x00 (0000ms, 0470ms total)
T0B88 005:437 JLINK_WriteReg(R8, 0x00000000)  returns 0x00 (0000ms, 0470ms total)
T0B88 005:437 JLINK_WriteReg(R9, 0x2000017C)  returns 0x00 (0000ms, 0470ms total)
T0B88 005:437 JLINK_WriteReg(R10, 0x00000000)  returns 0x00 (0000ms, 0470ms total)
T0B88 005:437 JLINK_WriteReg(R11, 0x00000000)  returns 0x00 (0000ms, 0470ms total)
T0B88 005:437 JLINK_WriteReg(R12, 0x00000000)  returns 0x00 (0000ms, 0470ms total)
T0B88 005:437 JLINK_WriteReg(R13, 0x20000800)  returns 0x00 (0000ms, 0470ms total)
T0B88 005:437 JLINK_WriteReg(R14, 0x20000001)  returns 0x00 (0000ms, 0470ms total)
T0B88 005:437 JLINK_WriteReg(R15, 0x20000082)  returns 0x00 (0000ms, 0470ms total)
T0B88 005:437 JLINK_WriteReg(XPSR, 0x01000000)  returns 0x00 (0000ms, 0470ms total)
T0B88 005:437 JLINK_WriteReg(MSP, 0x20000800)  returns 0x00 (0000ms, 0470ms total)
T0B88 005:437 JLINK_WriteReg(PSP, 0x20000800)  returns 0x00 (0000ms, 0470ms total)
T0B88 005:437 JLINK_WriteReg(CFBP, 0x00000000)  returns 0x00 (0000ms, 0470ms total)
T0B88 005:437 JLINK_SetBPEx(Addr = 0x20000000, Type = 0xFFFFFFF2)  returns 0x0000000C (0000ms, 0470ms total)
T0B88 005:437 JLINK_Go() (0003ms, 0473ms total)
T0B88 005:440 JLINK_IsHalted() -- CPU_ReadMem(2 bytes @ 0x20000000)  returns TRUE (0004ms, 0477ms total)
T0B88 005:444 JLINK_ReadReg(R15)  returns 0x20000000 (0000ms, 0473ms total)
T0B88 005:444 JLINK_ClrBPEx(BPHandle = 0x0000000C)  returns 0x00 (0000ms, 0473ms total)
T0B88 005:444 JLINK_ReadReg(R0)  returns 0x00000000 (0000ms, 0473ms total)
T0B88 005:506 JLINK_WriteMem(0x20000000, 0x0180 Bytes, ...) -- Data:  00 BE 0A E0 0D 78 2D 06 68 40 08 24 40 00 00 D3 ... -- CPU_WriteMem(384 bytes @ 0x20000000)  returns 0x180 (0003ms, 0476ms total)
T0B88 005:509 JLINK_WriteReg(R0, 0x08000000)  returns 0x00 (0000ms, 0476ms total)
T0B88 005:509 JLINK_WriteReg(R1, 0x007A1200)  returns 0x00 (0000ms, 0476ms total)
T0B88 005:509 JLINK_WriteReg(R2, 0x00000002)  returns 0x00 (0000ms, 0476ms total)
T0B88 005:509 JLINK_WriteReg(R3, 0x00000000)  returns 0x00 (0000ms, 0476ms total)
T0B88 005:509 JLINK_WriteReg(R4, 0x00000000)  returns 0x00 (0001ms, 0477ms total)
T0B88 005:510 JLINK_WriteReg(R5, 0x00000000)  returns 0x00 (0000ms, 0477ms total)
T0B88 005:510 JLINK_WriteReg(R6, 0x00000000)  returns 0x00 (0000ms, 0477ms total)
T0B88 005:510 JLINK_WriteReg(R7, 0x00000000)  returns 0x00 (0000ms, 0477ms total)
T0B88 005:510 JLINK_WriteReg(R8, 0x00000000)  returns 0x00 (0000ms, 0477ms total)
T0B88 005:510 JLINK_WriteReg(R9, 0x2000017C)  returns 0x00 (0000ms, 0477ms total)
T0B88 005:510 JLINK_WriteReg(R10, 0x00000000)  returns 0x00 (0000ms, 0477ms total)
T0B88 005:510 JLINK_WriteReg(R11, 0x00000000)  returns 0x00 (0000ms, 0477ms total)
T0B88 005:510 JLINK_WriteReg(R12, 0x00000000)  returns 0x00 (0000ms, 0477ms total)
T0B88 005:510 JLINK_WriteReg(R13, 0x20000800)  returns 0x00 (0000ms, 0477ms total)
T0B88 005:510 JLINK_WriteReg(R14, 0x20000001)  returns 0x00 (0000ms, 0477ms total)
T0B88 005:510 JLINK_WriteReg(R15, 0x20000054)  returns 0x00 (0000ms, 0477ms total)
T0B88 005:510 JLINK_WriteReg(XPSR, 0x01000000)  returns 0x00 (0000ms, 0477ms total)
T0B88 005:510 JLINK_WriteReg(MSP, 0x20000800)  returns 0x00 (0000ms, 0477ms total)
T0B88 005:510 JLINK_WriteReg(PSP, 0x20000800)  returns 0x00 (0000ms, 0477ms total)
T0B88 005:510 JLINK_WriteReg(CFBP, 0x00000000)  returns 0x00 (0000ms, 0477ms total)
T0B88 005:510 JLINK_SetBPEx(Addr = 0x20000000, Type = 0xFFFFFFF2) -- CPU_ReadMem(2 bytes @ 0x20000000)  returns 0x0000000D (0001ms, 0478ms total)
T0B88 005:511 JLINK_Go() -- CPU_WriteMem(2 bytes @ 0x20000000) (0003ms, 0481ms total)
T0B88 005:514 JLINK_IsHalted() -- CPU_ReadMem(2 bytes @ 0x20000000)  returns TRUE (0004ms, 0485ms total)
T0B88 005:518 JLINK_ReadReg(R15)  returns 0x20000000 (0001ms, 0482ms total)
T0B88 005:519 JLINK_ClrBPEx(BPHandle = 0x0000000D)  returns 0x00 (0000ms, 0482ms total)
T0B88 005:519 JLINK_ReadReg(R0)  returns 0x00000000 (0000ms, 0482ms total)
T0B88 005:519 JLINK_WriteMem(0x20000180, 0x0400 Bytes, ...) -- Data:  10 94 01 20 9D 41 00 08 E5 03 01 08 65 42 00 08 ... -- CPU_WriteMem(1024 bytes @ 0x20000180)  returns 0x400 (0008ms, 0490ms total)
T0B88 005:527 JLINK_WriteReg(R0, 0x08004000)  returns 0x00 (0000ms, 0490ms total)
T0B88 005:527 JLINK_WriteReg(R1, 0x00000400)  returns 0x00 (0000ms, 0490ms total)
T0B88 005:527 JLINK_WriteReg(R2, 0x20000180)  returns 0x00 (0000ms, 0490ms total)
T0B88 005:527 JLINK_WriteReg(R3, 0x00000000)  returns 0x00 (0000ms, 0490ms total)
T0B88 005:527 JLINK_WriteReg(R4, 0x00000000)  returns 0x00 (0000ms, 0490ms total)
T0B88 005:527 JLINK_WriteReg(R5, 0x00000000)  returns 0x00 (0000ms, 0490ms total)
T0B88 005:527 JLINK_WriteReg(R6, 0x00000000)  returns 0x00 (0000ms, 0490ms total)
T0B88 005:527 JLINK_WriteReg(R7, 0x00000000)  returns 0x00 (0000ms, 0490ms total)
T0B88 005:527 JLINK_WriteReg(R8, 0x00000000)  returns 0x00 (0000ms, 0490ms total)
T0B88 005:527 JLINK_WriteReg(R9, 0x2000017C)  returns 0x00 (0000ms, 0490ms total)
T0B88 005:527 JLINK_WriteReg(R10, 0x00000000)  returns 0x00 (0000ms, 0490ms total)
T0B88 005:527 JLINK_WriteReg(R11, 0x00000000)  returns 0x00 (0000ms, 0490ms total)
T0B88 005:527 JLINK_WriteReg(R12, 0x00000000)  returns 0x00 (0000ms, 0490ms total)
T0B88 005:527 JLINK_WriteReg(R13, 0x20000800)  returns 0x00 (0000ms, 0490ms total)
T0B88 005:527 JLINK_WriteReg(R14, 0x20000001)  returns 0x00 (0000ms, 0490ms total)
T0B88 005:527 JLINK_WriteReg(R15, 0x20000108)  returns 0x00 (0000ms, 0490ms total)
T0B88 005:527 JLINK_WriteReg(XPSR, 0x01000000)  returns 0x00 (0000ms, 0490ms total)
T0B88 005:527 JLINK_WriteReg(MSP, 0x20000800)  returns 0x00 (0000ms, 0490ms total)
T0B88 005:527 JLINK_WriteReg(PSP, 0x20000800)  returns 0x00 (0000ms, 0490ms total)
T0B88 005:527 JLINK_WriteReg(CFBP, 0x00000000)  returns 0x00 (0000ms, 0490ms total)
T0B88 005:527 JLINK_SetBPEx(Addr = 0x20000000, Type = 0xFFFFFFF2)  returns 0x0000000E (0000ms, 0490ms total)
T0B88 005:527 JLINK_Go() (0003ms, 0493ms total)
T0B88 005:530 JLINK_IsHalted()  returns FALSE (0001ms, 0494ms total)
T0B88 005:675 JLINK_IsHalted() -- CPU_ReadMem(2 bytes @ 0x20000000)  returns TRUE (0004ms, 0497ms total)
T0B88 005:679 JLINK_ReadReg(R15)  returns 0x20000000 (0000ms, 0493ms total)
T0B88 005:679 JLINK_ClrBPEx(BPHandle = 0x0000000E)  returns 0x00 (0000ms, 0493ms total)
T0B88 005:679 JLINK_ReadReg(R0)  returns 0x00000000 (0001ms, 0494ms total)
T0B88 005:680 JLINK_WriteMem(0x20000180, 0x0400 Bytes, ...) -- Data:  44 F4 80 64 A9 69 7F 1C 01 98 88 47 76 1E 82 46 ... -- CPU_WriteMem(1024 bytes @ 0x20000180)  returns 0x400 (0008ms, 0502ms total)
T0B88 005:688 JLINK_WriteReg(R0, 0x08004400)  returns 0x00 (0000ms, 0502ms total)
T0B88 005:688 JLINK_WriteReg(R1, 0x00000400)  returns 0x00 (0000ms, 0502ms total)
T0B88 005:688 JLINK_WriteReg(R2, 0x20000180)  returns 0x00 (0000ms, 0502ms total)
T0B88 005:688 JLINK_WriteReg(R3, 0x00000000)  returns 0x00 (0000ms, 0502ms total)
T0B88 005:688 JLINK_WriteReg(R4, 0x00000000)  returns 0x00 (0000ms, 0502ms total)
T0B88 005:688 JLINK_WriteReg(R5, 0x00000000)  returns 0x00 (0000ms, 0502ms total)
T0B88 005:688 JLINK_WriteReg(R6, 0x00000000)  returns 0x00 (0000ms, 0502ms total)
T0B88 005:688 JLINK_WriteReg(R7, 0x00000000)  returns 0x00 (0000ms, 0502ms total)
T0B88 005:688 JLINK_WriteReg(R8, 0x00000000)  returns 0x00 (0000ms, 0502ms total)
T0B88 005:688 JLINK_WriteReg(R9, 0x2000017C)  returns 0x00 (0000ms, 0502ms total)
T0B88 005:688 JLINK_WriteReg(R10, 0x00000000)  returns 0x00 (0000ms, 0502ms total)
T0B88 005:688 JLINK_WriteReg(R11, 0x00000000)  returns 0x00 (0000ms, 0502ms total)
T0B88 005:688 JLINK_WriteReg(R12, 0x00000000)  returns 0x00 (0000ms, 0502ms total)
T0B88 005:688 JLINK_WriteReg(R13, 0x20000800)  returns 0x00 (0000ms, 0502ms total)
T0B88 005:688 JLINK_WriteReg(R14, 0x20000001)  returns 0x00 (0000ms, 0502ms total)
T0B88 005:688 JLINK_WriteReg(R15, 0x20000108)  returns 0x00 (0000ms, 0502ms total)
T0B88 005:688 JLINK_WriteReg(XPSR, 0x01000000)  returns 0x00 (0000ms, 0502ms total)
T0B88 005:688 JLINK_WriteReg(MSP, 0x20000800)  returns 0x00 (0000ms, 0502ms total)
T0B88 005:688 JLINK_WriteReg(PSP, 0x20000800)  returns 0x00 (0000ms, 0502ms total)
T0B88 005:688 JLINK_WriteReg(CFBP, 0x00000000)  returns 0x00 (0000ms, 0502ms total)
T0B88 005:688 JLINK_SetBPEx(Addr = 0x20000000, Type = 0xFFFFFFF2)  returns 0x0000000F (0000ms, 0502ms total)
T0B88 005:688 JLINK_Go() (0003ms, 0505ms total)
T0B88 005:691 JLINK_IsHalted()  returns FALSE (0001ms, 0506ms total)
T0B88 005:833 JLINK_IsHalted() -- CPU_ReadMem(2 bytes @ 0x20000000)  returns TRUE (0003ms, 0508ms total)
T0B88 005:836 JLINK_ReadReg(R15)  returns 0x20000000 (0000ms, 0505ms total)
T0B88 005:836 JLINK_ClrBPEx(BPHandle = 0x0000000F)  returns 0x00 (0000ms, 0505ms total)
T0B88 005:836 JLINK_ReadReg(R0)  returns 0x00000000 (0000ms, 0505ms total)
T0B88 005:837 JLINK_WriteMem(0x20000180, 0x0400 Bytes, ...) -- Data:  11 61 11 46 00 F0 52 B9 E9 47 00 08 95 42 00 08 ... -- CPU_WriteMem(1024 bytes @ 0x20000180)  returns 0x400 (0007ms, 0512ms total)
T0B88 005:844 JLINK_WriteReg(R0, 0x08004800)  returns 0x00 (0000ms, 0512ms total)
T0B88 005:844 JLINK_WriteReg(R1, 0x00000400)  returns 0x00 (0000ms, 0512ms total)
T0B88 005:844 JLINK_WriteReg(R2, 0x20000180)  returns 0x00 (0000ms, 0512ms total)
T0B88 005:844 JLINK_WriteReg(R3, 0x00000000)  returns 0x00 (0000ms, 0512ms total)
T0B88 005:844 JLINK_WriteReg(R4, 0x00000000)  returns 0x00 (0000ms, 0512ms total)
T0B88 005:844 JLINK_WriteReg(R5, 0x00000000)  returns 0x00 (0000ms, 0512ms total)
T0B88 005:844 JLINK_WriteReg(R6, 0x00000000)  returns 0x00 (0001ms, 0513ms total)
T0B88 005:845 JLINK_WriteReg(R7, 0x00000000)  returns 0x00 (0000ms, 0513ms total)
T0B88 005:845 JLINK_WriteReg(R8, 0x00000000)  returns 0x00 (0000ms, 0513ms total)
T0B88 005:845 JLINK_WriteReg(R9, 0x2000017C)  returns 0x00 (0000ms, 0513ms total)
T0B88 005:845 JLINK_WriteReg(R10, 0x00000000)  returns 0x00 (0000ms, 0513ms total)
T0B88 005:845 JLINK_WriteReg(R11, 0x00000000)  returns 0x00 (0000ms, 0513ms total)
T0B88 005:845 JLINK_WriteReg(R12, 0x00000000)  returns 0x00 (0000ms, 0513ms total)
T0B88 005:845 JLINK_WriteReg(R13, 0x20000800)  returns 0x00 (0000ms, 0513ms total)
T0B88 005:845 JLINK_WriteReg(R14, 0x20000001)  returns 0x00 (0000ms, 0513ms total)
T0B88 005:845 JLINK_WriteReg(R15, 0x20000108)  returns 0x00 (0000ms, 0513ms total)
T0B88 005:845 JLINK_WriteReg(XPSR, 0x01000000)  returns 0x00 (0000ms, 0513ms total)
T0B88 005:845 JLINK_WriteReg(MSP, 0x20000800)  returns 0x00 (0000ms, 0513ms total)
T0B88 005:845 JLINK_WriteReg(PSP, 0x20000800)  returns 0x00 (0000ms, 0513ms total)
T0B88 005:845 JLINK_WriteReg(CFBP, 0x00000000)  returns 0x00 (0000ms, 0513ms total)
T0B88 005:845 JLINK_SetBPEx(Addr = 0x20000000, Type = 0xFFFFFFF2)  returns 0x00000010 (0000ms, 0513ms total)
T0B88 005:845 JLINK_Go() (0002ms, 0515ms total)
T0B88 005:847 JLINK_IsHalted()  returns FALSE (0001ms, 0516ms total)
T0B88 005:994 JLINK_IsHalted() -- CPU_ReadMem(2 bytes @ 0x20000000)  returns TRUE (0004ms, 0519ms total)
T0B88 005:998 JLINK_ReadReg(R15)  returns 0x20000000 (0000ms, 0515ms total)
T0B88 005:998 JLINK_ClrBPEx(BPHandle = 0x00000010)  returns 0x00 (0000ms, 0515ms total)
T0B88 005:998 JLINK_ReadReg(R0)  returns 0x00000000 (0000ms, 0515ms total)
T0B88 005:999 JLINK_WriteMem(0x20000180, 0x0400 Bytes, ...) -- Data:  7F D0 61 28 28 D0 63 28 7B D0 64 28 23 D1 59 E0 ... -- CPU_WriteMem(1024 bytes @ 0x20000180)  returns 0x400 (0006ms, 0521ms total)
T0B88 006:005 JLINK_WriteReg(R0, 0x08004C00)  returns 0x00 (0000ms, 0521ms total)
T0B88 006:005 JLINK_WriteReg(R1, 0x00000400)  returns 0x00 (0000ms, 0521ms total)
T0B88 006:005 JLINK_WriteReg(R2, 0x20000180)  returns 0x00 (0000ms, 0521ms total)
T0B88 006:005 JLINK_WriteReg(R3, 0x00000000)  returns 0x00 (0000ms, 0521ms total)
T0B88 006:005 JLINK_WriteReg(R4, 0x00000000)  returns 0x00 (0000ms, 0521ms total)
T0B88 006:005 JLINK_WriteReg(R5, 0x00000000)  returns 0x00 (0000ms, 0521ms total)
T0B88 006:005 JLINK_WriteReg(R6, 0x00000000)  returns 0x00 (0000ms, 0521ms total)
T0B88 006:005 JLINK_WriteReg(R7, 0x00000000)  returns 0x00 (0000ms, 0521ms total)
T0B88 006:005 JLINK_WriteReg(R8, 0x00000000)  returns 0x00 (0000ms, 0521ms total)
T0B88 006:005 JLINK_WriteReg(R9, 0x2000017C)  returns 0x00 (0000ms, 0521ms total)
T0B88 006:005 JLINK_WriteReg(R10, 0x00000000)  returns 0x00 (0000ms, 0521ms total)
T0B88 006:006 JLINK_WriteReg(R11, 0x00000000)  returns 0x00 (0000ms, 0522ms total)
T0B88 006:006 JLINK_WriteReg(R12, 0x00000000)  returns 0x00 (0000ms, 0522ms total)
T0B88 006:006 JLINK_WriteReg(R13, 0x20000800)  returns 0x00 (0000ms, 0522ms total)
T0B88 006:006 JLINK_WriteReg(R14, 0x20000001)  returns 0x00 (0000ms, 0522ms total)
T0B88 006:006 JLINK_WriteReg(R15, 0x20000108)  returns 0x00 (0000ms, 0522ms total)
T0B88 006:006 JLINK_WriteReg(XPSR, 0x01000000)  returns 0x00 (0000ms, 0522ms total)
T0B88 006:006 JLINK_WriteReg(MSP, 0x20000800)  returns 0x00 (0000ms, 0522ms total)
T0B88 006:006 JLINK_WriteReg(PSP, 0x20000800)  returns 0x00 (0000ms, 0522ms total)
T0B88 006:006 JLINK_WriteReg(CFBP, 0x00000000)  returns 0x00 (0000ms, 0522ms total)
T0B88 006:006 JLINK_SetBPEx(Addr = 0x20000000, Type = 0xFFFFFFF2)  returns 0x00000011 (0000ms, 0522ms total)
T0B88 006:006 JLINK_Go() (0002ms, 0524ms total)
T0B88 006:008 JLINK_IsHalted()  returns FALSE (0001ms, 0525ms total)
T0B88 006:155 JLINK_IsHalted() -- CPU_ReadMem(2 bytes @ 0x20000000)  returns TRUE (0004ms, 0528ms total)
T0B88 006:159 JLINK_ReadReg(R15)  returns 0x20000000 (0000ms, 0524ms total)
T0B88 006:159 JLINK_ClrBPEx(BPHandle = 0x00000011)  returns 0x00 (0000ms, 0524ms total)
T0B88 006:159 JLINK_ReadReg(R0)  returns 0x00000000 (0000ms, 0524ms total)
T0B88 006:160 JLINK_WriteMem(0x20000180, 0x0400 Bytes, ...) -- Data:  65 0F 02 D0 BA F1 45 0F 4C D1 A0 05 4A D5 76 1E ... -- CPU_WriteMem(1024 bytes @ 0x20000180)  returns 0x400 (0007ms, 0531ms total)
T0B88 006:167 JLINK_WriteReg(R0, 0x08005000)  returns 0x00 (0000ms, 0531ms total)
T0B88 006:167 JLINK_WriteReg(R1, 0x00000400)  returns 0x00 (0000ms, 0531ms total)
T0B88 006:167 JLINK_WriteReg(R2, 0x20000180)  returns 0x00 (0000ms, 0531ms total)
T0B88 006:167 JLINK_WriteReg(R3, 0x00000000)  returns 0x00 (0000ms, 0531ms total)
T0B88 006:167 JLINK_WriteReg(R4, 0x00000000)  returns 0x00 (0000ms, 0531ms total)
T0B88 006:167 JLINK_WriteReg(R5, 0x00000000)  returns 0x00 (0000ms, 0531ms total)
T0B88 006:167 JLINK_WriteReg(R6, 0x00000000)  returns 0x00 (0000ms, 0531ms total)
T0B88 006:167 JLINK_WriteReg(R7, 0x00000000)  returns 0x00 (0000ms, 0531ms total)
T0B88 006:167 JLINK_WriteReg(R8, 0x00000000)  returns 0x00 (0000ms, 0531ms total)
T0B88 006:167 JLINK_WriteReg(R9, 0x2000017C)  returns 0x00 (0000ms, 0531ms total)
T0B88 006:167 JLINK_WriteReg(R10, 0x00000000)  returns 0x00 (0000ms, 0531ms total)
T0B88 006:167 JLINK_WriteReg(R11, 0x00000000)  returns 0x00 (0000ms, 0531ms total)
T0B88 006:167 JLINK_WriteReg(R12, 0x00000000)  returns 0x00 (0000ms, 0531ms total)
T0B88 006:167 JLINK_WriteReg(R13, 0x20000800)  returns 0x00 (0000ms, 0531ms total)
T0B88 006:167 JLINK_WriteReg(R14, 0x20000001)  returns 0x00 (0000ms, 0531ms total)
T0B88 006:167 JLINK_WriteReg(R15, 0x20000108)  returns 0x00 (0000ms, 0531ms total)
T0B88 006:167 JLINK_WriteReg(XPSR, 0x01000000)  returns 0x00 (0000ms, 0531ms total)
T0B88 006:167 JLINK_WriteReg(MSP, 0x20000800)  returns 0x00 (0000ms, 0531ms total)
T0B88 006:167 JLINK_WriteReg(PSP, 0x20000800)  returns 0x00 (0000ms, 0531ms total)
T0B88 006:167 JLINK_WriteReg(CFBP, 0x00000000)  returns 0x00 (0000ms, 0531ms total)
T0B88 006:167 JLINK_SetBPEx(Addr = 0x20000000, Type = 0xFFFFFFF2)  returns 0x00000012 (0000ms, 0531ms total)
T0B88 006:167 JLINK_Go() (0002ms, 0533ms total)
T0B88 006:169 JLINK_IsHalted()  returns FALSE (0001ms, 0534ms total)
T0B88 006:308 JLINK_IsHalted() -- CPU_ReadMem(2 bytes @ 0x20000000)  returns TRUE (0005ms, 0538ms total)
